time	V(salida)	V(vin1)
0.000000000000000e+000	5.978665e-010	0.000000e+000
7.142857099446638e-010	-8.589253e-009	6.731984e-008
1.428571419889328e-009	-2.159983e-008	1.346397e-007
2.142857129833992e-009	-3.843386e-008	2.019595e-007
2.857142839778655e-009	-5.909134e-008	2.692794e-007
3.571428549723319e-009	-8.357228e-008	3.365992e-007
4.285714259667983e-009	-1.118767e-007	4.039191e-007
4.999999969612645e-009	-1.440045e-007	4.712389e-007
9.999999939225290e-009	-3.034545e-007	9.424778e-007
9.999999939225293e-008	1.627581e-005	9.424785e-006
1.899999988452806e-007	5.253910e-005	1.790708e-005
2.799999982983082e-007	1.084864e-004	2.638935e-005
3.699999977513359e-007	1.841177e-004	3.487161e-005
4.599999972043635e-007	2.794331e-004	4.335385e-005
5.499999966573912e-007	3.944325e-004	5.183607e-005
6.399999961104186e-007	5.291158e-004	6.031827e-005
1.279999992220837e-006	1.702867e-003	1.206347e-004
2.559999984441674e-006	4.750318e-003	2.412574e-004
4.513124984441674e-006	9.995631e-003	4.252790e-004
9.814464270155965e-006	2.488962e-002	9.257434e-004
1.511580355587026e-005	3.971386e-002	1.423807e-003
2.041714284158455e-005	5.446835e-002	1.919471e-003
2.571848212729884e-005	6.915308e-002	2.412733e-003
3.101982141301313e-005	8.376807e-002	2.903596e-003
3.632116069872742e-005	9.831330e-002	3.392057e-003
4.162249998444170e-005	1.127888e-001	3.878119e-003
5.278321427015599e-005	1.430524e-001	4.895274e-003
6.394392855587029e-005	1.722257e-001	5.876822e-003
7.510464284158459e-005	2.003085e-001	6.822763e-003
8.626535712729890e-005	2.273009e-001	7.733097e-003
9.742607141301318e-005	2.532029e-001	8.607825e-003
1.085867856987275e-004	2.780145e-001	9.446946e-003
1.197474999844418e-004	3.017357e-001	1.025046e-002
1.401158035558703e-004	3.412632e-001	1.159642e-002
1.604841071272989e-004	3.742321e-001	1.271773e-002
1.808524106987275e-004	4.006422e-001	1.361438e-002
2.012207142701561e-004	4.204936e-001	1.428639e-002
2.215890178415847e-004	4.337863e-001	1.473374e-002
2.419573214130133e-004	4.405203e-001	1.495643e-002
2.623256249844419e-004	4.406956e-001	1.495448e-002
2.807408035558705e-004	4.336389e-001	1.469655e-002
2.991559821272990e-004	4.214134e-001	1.426350e-002
3.175711606987277e-004	4.040192e-001	1.365531e-002
3.359863392701562e-004	3.814562e-001	1.287199e-002
3.544015178415848e-004	3.537244e-001	1.191355e-002
3.728166964130134e-004	3.208239e-001	1.077997e-002
3.912318749844420e-004	2.827546e-001	9.471260e-003
4.018345535558705e-004	2.591784e-001	8.666192e-003
4.124372321272991e-004	2.346975e-001	7.832304e-003
4.230399106987278e-004	2.093118e-001	6.969596e-003
4.336425892701563e-004	1.830214e-001	6.078068e-003
4.442452678415849e-004	1.558262e-001	5.157721e-003
4.548479464130135e-004	1.277262e-001	4.208553e-003
4.654506249844420e-004	9.872144e-002	3.230566e-003
4.704729464130134e-004	8.491918e-002	2.765650e-003
4.754952678415849e-004	7.106396e-002	2.299145e-003
4.805175892701563e-004	5.715578e-002	1.831053e-003
4.855399106987278e-004	4.319465e-002	1.361373e-003
4.905622321272992e-004	2.918055e-002	8.901051e-004
4.955845535558706e-004	1.511349e-002	4.172493e-004
5.006068749844420e-004	9.934793e-004	-5.719433e-005
5.056291964130134e-004	-1.312762e-002	-5.315801e-004
5.106515178415849e-004	-2.719786e-002	-1.004265e-003
5.156738392701563e-004	-4.121726e-002	-1.475249e-003
5.206961606987277e-004	-5.518581e-002	-1.944532e-003
5.257184821272992e-004	-6.910351e-002	-2.412114e-003
5.307408035558706e-004	-8.297036e-002	-2.877995e-003
5.357631249844420e-004	-9.678636e-002	-3.342176e-003
5.463658035558707e-004	-1.258276e-001	-4.318212e-003
5.569684821272992e-004	-1.539723e-001	-5.264975e-003
5.675711606987278e-004	-1.812205e-001	-6.182464e-003
5.781738392701564e-004	-2.075721e-001	-7.070679e-003
5.887765178415850e-004	-2.330273e-001	-7.929621e-003
5.993791964130136e-004	-2.575859e-001	-8.759289e-003
6.099818749844421e-004	-2.812479e-001	-9.559684e-003
6.286760714130135e-004	-3.200508e-001	-1.087827e-002
6.473702678415850e-004	-3.535259e-001	-1.201518e-002
6.660644642701565e-004	-3.816733e-001	-1.297041e-002
6.847586606987279e-004	-4.044930e-001	-1.374397e-002
7.034528571272994e-004	-4.219850e-001	-1.433586e-002
7.221470535558708e-004	-4.341493e-001	-1.474607e-002
7.408412499844422e-004	-4.409859e-001	-1.497461e-002
7.603724999844422e-004	-4.406094e-001	-1.494628e-002
7.799037499844423e-004	-4.341697e-001	-1.471119e-002
7.994349999844423e-004	-4.216668e-001	-1.426934e-002
8.189662499844423e-004	-4.031006e-001	-1.362071e-002
8.384974999844423e-004	-3.784711e-001	-1.276532e-002
8.580287499844423e-004	-3.477784e-001	-1.170316e-002
8.775599999844423e-004	-3.110225e-001	-1.043424e-002
8.889997321272995e-004	-2.873040e-001	-9.621626e-003
9.004394642701567e-004	-2.623951e-001	-8.770893e-003
9.118791964130138e-004	-2.362958e-001	-7.882037e-003
9.233189285558710e-004	-2.090062e-001	-6.955058e-003
9.347586606987281e-004	-1.805263e-001	-5.989958e-003
9.461983928415853e-004	-1.508561e-001	-4.986735e-003
9.576381249844424e-004	-1.199955e-001	-3.945389e-003
9.634974999844424e-004	-1.040531e-001	-3.408222e-003
9.693568749844424e-004	-8.801920e-002	-2.868277e-003
9.752162499844424e-004	-7.189379e-002	-2.325553e-003
9.810756249844423e-004	-5.567687e-002	-1.780051e-003
9.869349999844423e-004	-3.936844e-002	-1.231771e-003
9.927943749844423e-004	-2.296851e-002	-6.807121e-004
9.986537499844423e-004	-6.477075e-003	-1.268748e-004
1.002559999984442e-003	4.502305e-003	2.418077e-004
1.006466249984442e-003	1.546122e-002	6.097917e-004
1.010372499984442e-003	2.639967e-002	9.770771e-004
1.014278749984442e-003	3.731766e-002	1.343664e-003
1.018184999984442e-003	4.821519e-002	1.709552e-003
1.022091249984442e-003	5.909225e-002	2.074742e-003
1.025997499984442e-003	6.994885e-002	2.439233e-003
1.035763124984442e-003	9.708482e-002	3.350286e-003
1.045528749984442e-003	1.235819e-001	4.240584e-003
1.055294374984442e-003	1.494401e-001	5.110126e-003
1.065059999984442e-003	1.746593e-001	5.958912e-003
1.074825624984442e-003	1.992397e-001	6.786942e-003
1.084591249984442e-003	2.231812e-001	7.594216e-003
1.094356874984442e-003	2.464838e-001	8.380734e-003
1.110818928555871e-003	2.838158e-001	9.645643e-003
1.127280982127300e-003	3.173133e-001	1.078119e-002
1.143743035698728e-003	3.469765e-001	1.178738e-002
1.160205089270157e-003	3.728052e-001	1.266422e-002
1.176667142841585e-003	3.947995e-001	1.341169e-002
1.193129196413014e-003	4.129595e-001	1.402981e-002
1.209591249984443e-003	4.272850e-001	1.451857e-002
1.230238571413014e-003	4.378904e-001	1.487257e-002
1.250885892841585e-003	4.414473e-001	1.498398e-002
1.271533214270157e-003	4.379557e-001	1.485282e-002
1.292180535698728e-003	4.274156e-001	1.447908e-002
1.312827857127300e-003	4.098270e-001	1.386276e-002
1.333475178555871e-003	3.851899e-001	1.300386e-002
1.354122499984443e-003	3.535042e-001	1.190239e-002
1.366957321413014e-003	3.306268e-001	1.111308e-002
1.379792142841586e-003	3.059825e-001	1.026640e-002
1.392626964270157e-003	2.795713e-001	9.362354e-003
1.405461785698729e-003	2.513933e-001	8.400932e-003
1.418296607127300e-003	2.214485e-001	7.382139e-003
1.431131428555871e-003	1.897367e-001	6.305973e-003
1.443966249984443e-003	1.562581e-001	5.172435e-003
1.450941696413014e-003	1.377579e-001	4.547517e-003
1.457917142841586e-003	1.190738e-001	3.916925e-003
1.464892589270157e-003	1.002058e-001	3.280659e-003
1.471868035698729e-003	8.115386e-002	2.638719e-003
1.478843482127300e-003	6.191800e-002	1.991106e-003
1.485818928555871e-003	4.249823e-002	1.337818e-003
1.492794374984443e-003	2.289455e-002	6.788566e-004
1.496142589270157e-003	1.350125e-002	3.631542e-004
1.499490803555871e-003	4.112637e-003	4.763983e-005
1.502839017841586e-003	-5.271305e-003	-2.676864e-004
1.506187232127300e-003	-1.465057e-002	-5.828245e-004
1.509535446413014e-003	-2.402517e-002	-8.977744e-004
1.512883660698729e-003	-3.339508e-002	-1.212536e-003
1.516231874984443e-003	-4.276033e-002	-1.527110e-003
1.524602410698729e-003	-6.621185e-002	-2.314669e-003
1.532972946413014e-003	-8.930509e-002	-3.090558e-003
1.541343482127300e-003	-1.120400e-001	-3.854777e-003
1.549714017841586e-003	-1.344167e-001	-4.607326e-003
1.558084553555871e-003	-1.564351e-001	-5.348205e-003
1.566455089270157e-003	-1.780952e-001	-6.077415e-003
1.574825624984443e-003	-1.993970e-001	-6.794955e-003
1.589055535698729e-003	-2.345350e-001	-7.981417e-003
1.603285446413014e-003	-2.671597e-001	-9.084077e-003
1.617515357127300e-003	-2.972711e-001	-1.010293e-002
1.631745267841586e-003	-3.248692e-001	-1.103799e-002
1.645975178555872e-003	-3.499540e-001	-1.188924e-002
1.660205089270157e-003	-3.725256e-001	-1.265669e-002
1.674434999984443e-003	-3.925838e-001	-1.334034e-002
1.695919374984443e-003	-4.163140e-001	-1.414754e-002
1.717403749984443e-003	-4.322977e-001	-1.468719e-002
1.738888124984443e-003	-4.405349e-001	-1.495928e-002
1.760372499984443e-003	-4.410255e-001	-1.496381e-002
1.781856874984443e-003	-4.337696e-001	-1.470078e-002
1.803341249984443e-003	-4.187672e-001	-1.417019e-002
1.824825624984443e-003	-3.960182e-001	-1.337205e-002
1.839334553555872e-003	-3.761237e-001	-1.267874e-002
1.853843482127300e-003	-3.535873e-001	-1.189848e-002
1.868352410698729e-003	-3.284088e-001	-1.103125e-002
1.882861339270158e-003	-3.005883e-001	-1.007707e-002
1.897370267841586e-003	-2.701258e-001	-9.035934e-003
1.911879196413015e-003	-2.370213e-001	-7.907836e-003
1.926388124984443e-003	-2.012747e-001	-6.692780e-003
1.931689464270157e-003	-1.879325e-001	-6.240728e-003
1.936990803555871e-003	-1.744109e-001	-5.783041e-003
1.942292142841586e-003	-1.607098e-001	-5.319718e-003
1.947593482127300e-003	-1.468293e-001	-4.850759e-003
1.952894821413014e-003	-1.327693e-001	-4.376165e-003
1.958196160698728e-003	-1.185300e-001	-3.895935e-003
1.963497499984442e-003	-1.041112e-001	-3.410069e-003
1.965450624984442e-003	-9.878206e-002	-3.230566e-003
1.969914910698727e-003	-8.651765e-002	-2.817671e-003
1.974379196413012e-003	-7.420684e-002	-2.403376e-003
1.978843482127297e-003	-6.184964e-002	-1.987683e-003
1.983307767841583e-003	-4.944605e-002	-1.570592e-003
1.987772053555868e-003	-3.699606e-002	-1.152102e-003
1.992236339270153e-003	-2.449969e-002	-7.322125e-004
1.996700624984439e-003	-1.195692e-002	-3.109248e-004
1.998653749984438e-003	-6.477132e-003	-1.268758e-004
2.000000000000000e-003	-2.699367e-003	-7.347881e-018
