time	V(salida)	V(vin1)
0.000000000000000e+000	4.368140e-005	0.000000e+000
1.428571419889328e-009	4.373083e-005	1.346397e-007
2.857142839778655e-009	4.377886e-005	2.692794e-007
4.285714259667983e-009	4.382549e-005	4.039191e-007
5.714285679557311e-009	4.387072e-005	5.385587e-007
7.142857099446638e-009	4.391455e-005	6.731984e-007
8.571428519335966e-009	4.395697e-005	8.078381e-007
9.999999939225290e-009	4.399799e-005	9.424778e-007
9.999999939225293e-008	5.789445e-005	9.424785e-006
1.899999988452806e-007	8.330083e-005	1.790708e-005
2.799999982983082e-007	1.202171e-004	2.638935e-005
3.699999977513359e-007	1.686434e-004	3.487161e-005
4.599999972043635e-007	2.285795e-004	4.335385e-005
5.499999966573912e-007	3.000256e-004	5.183607e-005
6.399999961104186e-007	3.829816e-004	6.031827e-005
1.279999992220837e-006	1.106891e-003	1.206347e-004
2.559999984441674e-006	2.990302e-003	2.412574e-004
4.513124984441674e-006	6.250950e-003	4.252790e-004
9.535446413013107e-006	1.507058e-002	8.992915e-004
1.455776784158454e-005	2.385563e-002	1.371240e-003
1.958008927015597e-005	3.260608e-002	1.841124e-003
2.460241069872741e-005	4.132196e-002	2.308944e-003
2.962473212729884e-005	5.000324e-002	2.774700e-003
3.464705355587027e-005	5.864994e-002	3.238392e-003
3.966937498444169e-005	6.726205e-002	3.700019e-003
5.083008927015599e-005	8.630229e-002	4.720941e-003
6.199080355587029e-005	1.046957e-001	5.707046e-003
7.315151784158459e-005	1.224422e-001	6.658334e-003
8.431223212729890e-005	1.395418e-001	7.574804e-003
9.547294641301318e-005	1.559946e-001	8.456456e-003
1.066336606987275e-004	1.718005e-001	9.303292e-003
1.177943749844418e-004	1.869595e-001	1.011531e-002
1.367675892701561e-004	2.107344e-001	1.138899e-002
1.557408035558704e-004	2.309538e-001	1.247069e-002
1.747140178415847e-004	2.476178e-001	1.336039e-002
1.936872321272990e-004	2.607265e-001	1.405811e-002
2.126604464130133e-004	2.702797e-001	1.456384e-002
2.316336606987276e-004	2.762776e-001	1.487758e-002
2.506068749844418e-004	2.787201e-001	1.499933e-002
2.695800892701562e-004	2.764224e-001	1.486352e-002
2.885533035558705e-004	2.705649e-001	1.453638e-002
3.075265178415847e-004	2.611474e-001	1.401790e-002
3.264997321272991e-004	2.481699e-001	1.330807e-002
3.454729464130134e-004	2.316326e-001	1.240691e-002
3.644461606987277e-004	2.115352e-001	1.131440e-002
3.834193749844420e-004	1.878780e-001	1.003055e-002
3.945800892701563e-004	1.727825e-001	9.213312e-003
4.057408035558706e-004	1.570357e-001	8.361747e-003
4.169015178415848e-004	1.406375e-001	7.475858e-003
4.280622321272992e-004	1.235880e-001	6.555644e-003
4.392229464130135e-004	1.058872e-001	5.601106e-003
4.503836606987278e-004	8.753497e-002	4.612245e-003
4.615443749844420e-004	6.853144e-002	3.589059e-003
4.671247321272992e-004	5.897349e-002	3.074718e-003
4.727050892701563e-004	4.937228e-002	2.558194e-003
4.782854464130134e-004	3.972782e-002	2.039485e-003
4.838658035558706e-004	3.004012e-002	1.518591e-003
4.894461606987277e-004	2.030916e-002	9.955138e-004
4.950265178415849e-004	1.053495e-002	4.702519e-004
5.006068749844420e-004	7.174902e-004	-5.719433e-005
5.061872321272991e-004	-9.100775e-003	-5.845689e-004
5.117675892701563e-004	-1.887736e-002	-1.109620e-003
5.173479464130134e-004	-2.861227e-002	-1.632347e-003
5.229283035558706e-004	-3.830550e-002	-2.152751e-003
5.285086606987277e-004	-4.795705e-002	-2.670831e-003
5.340890178415849e-004	-5.756693e-002	-3.186587e-003
5.396693749844420e-004	-6.713513e-002	-3.700019e-003
5.508300892701564e-004	-8.616415e-002	-4.720941e-003
5.619908035558707e-004	-1.045475e-001	-5.707046e-003
5.731515178415850e-004	-1.222853e-001	-6.658334e-003
5.843122321272993e-004	-1.393774e-001	-7.574804e-003
5.954729464130135e-004	-1.558238e-001	-8.456456e-003
6.066336606987278e-004	-1.716246e-001	-9.303292e-003
6.177943749844421e-004	-1.867798e-001	-1.011531e-002
6.367675892701564e-004	-2.105536e-001	-1.138899e-002
6.557408035558708e-004	-2.307758e-001	-1.247069e-002
6.747140178415851e-004	-2.474463e-001	-1.336039e-002
6.936872321272994e-004	-2.605651e-001	-1.405811e-002
7.126604464130137e-004	-2.701322e-001	-1.456384e-002
7.316336606987279e-004	-2.761476e-001	-1.487758e-002
7.506068749844422e-004	-2.786114e-001	-1.499933e-002
7.695800892701566e-004	-2.763361e-001	-1.486352e-002
7.885533035558709e-004	-2.704981e-001	-1.453638e-002
8.075265178415852e-004	-2.610972e-001	-1.401790e-002
8.264997321272995e-004	-2.481334e-001	-1.330807e-002
8.454729464130138e-004	-2.316069e-001	-1.240691e-002
8.644461606987280e-004	-2.115175e-001	-1.131440e-002
8.834193749844424e-004	-1.878653e-001	-1.003055e-002
8.945800892701567e-004	-1.727692e-001	-9.213312e-003
9.057408035558710e-004	-1.570203e-001	-8.361747e-003
9.169015178415853e-004	-1.406185e-001	-7.475858e-003
9.280622321272996e-004	-1.235640e-001	-6.555644e-003
9.392229464130138e-004	-1.058567e-001	-5.601106e-003
9.503836606987281e-004	-8.749658e-002	-4.612245e-003
9.615443749844424e-004	-6.848364e-002	-3.589059e-003
9.671247321272995e-004	-5.892069e-002	-3.074718e-003
9.727050892701567e-004	-4.931433e-002	-2.558194e-003
9.782854464130137e-004	-3.966457e-002	-2.039485e-003
9.838658035558709e-004	-2.997140e-002	-1.518591e-003
9.894461606987281e-004	-2.023483e-002	-9.955138e-004
9.950265178415851e-004	-1.045485e-002	-4.702519e-004
1.000606874984442e-003	-6.314695e-004	5.719433e-005
1.006187232127300e-003	9.192776e-003	5.845689e-004
1.011767589270157e-003	1.897530e-002	1.109620e-003
1.017347946413014e-003	2.871610e-002	1.632347e-003
1.022928303555871e-003	3.841517e-002	2.152751e-003
1.028508660698728e-003	4.807252e-002	2.670831e-003
1.034089017841585e-003	5.768815e-002	3.186587e-003
1.039669374984442e-003	6.726205e-002	3.700019e-003
1.050830089270157e-003	8.630229e-002	4.720941e-003
1.061990803555871e-003	1.046957e-001	5.707046e-003
1.073151517841585e-003	1.224422e-001	6.658334e-003
1.084312232127300e-003	1.395418e-001	7.574804e-003
1.095472946413014e-003	1.559946e-001	8.456456e-003
1.106633660698728e-003	1.718005e-001	9.303292e-003
1.117794374984442e-003	1.869595e-001	1.011531e-002
1.136767589270157e-003	2.107344e-001	1.138899e-002
1.155740803555871e-003	2.309538e-001	1.247069e-002
1.174714017841585e-003	2.476178e-001	1.336039e-002
1.193687232127300e-003	2.607265e-001	1.405811e-002
1.212660446413014e-003	2.702797e-001	1.456384e-002
1.231633660698728e-003	2.762776e-001	1.487758e-002
1.250606874984443e-003	2.787201e-001	1.499933e-002
1.269580089270157e-003	2.764224e-001	1.486352e-002
1.288553303555871e-003	2.705649e-001	1.453638e-002
1.307526517841585e-003	2.611474e-001	1.401790e-002
1.326499732127300e-003	2.481699e-001	1.330807e-002
1.345472946413014e-003	2.316326e-001	1.240691e-002
1.364446160698729e-003	2.115352e-001	1.131440e-002
1.383419374984443e-003	1.878780e-001	1.003055e-002
1.394580089270157e-003	1.727825e-001	9.213312e-003
1.405740803555871e-003	1.570357e-001	8.361747e-003
1.416901517841586e-003	1.406375e-001	7.475858e-003
1.428062232127300e-003	1.235880e-001	6.555644e-003
1.439222946413014e-003	1.058872e-001	5.601106e-003
1.450383660698729e-003	8.753497e-002	4.612245e-003
1.461544374984443e-003	6.853144e-002	3.589059e-003
1.467124732127300e-003	5.897349e-002	3.074718e-003
1.472705089270157e-003	4.937228e-002	2.558194e-003
1.478285446413014e-003	3.972782e-002	2.039485e-003
1.483865803555871e-003	3.004012e-002	1.518591e-003
1.489446160698729e-003	2.030916e-002	9.955138e-004
1.495026517841586e-003	1.053495e-002	4.702519e-004
1.500606874984443e-003	7.174886e-004	-5.719433e-005
1.506187232127300e-003	-9.100776e-003	-5.845689e-004
1.511767589270157e-003	-1.887736e-002	-1.109620e-003
1.517347946413014e-003	-2.861227e-002	-1.632347e-003
1.522928303555871e-003	-3.830550e-002	-2.152751e-003
1.528508660698729e-003	-4.795705e-002	-2.670831e-003
1.534089017841586e-003	-5.756693e-002	-3.186587e-003
1.539669374984443e-003	-6.713513e-002	-3.700019e-003
1.550830089270157e-003	-8.616415e-002	-4.720941e-003
1.561990803555871e-003	-1.045475e-001	-5.707046e-003
1.573151517841586e-003	-1.222853e-001	-6.658334e-003
1.584312232127300e-003	-1.393774e-001	-7.574804e-003
1.595472946413014e-003	-1.558238e-001	-8.456456e-003
1.606633660698729e-003	-1.716246e-001	-9.303292e-003
1.617794374984443e-003	-1.867798e-001	-1.011531e-002
1.636767589270157e-003	-2.105536e-001	-1.138899e-002
1.655740803555872e-003	-2.307758e-001	-1.247069e-002
1.674714017841586e-003	-2.474463e-001	-1.336039e-002
1.693687232127300e-003	-2.605651e-001	-1.405811e-002
1.712660446413014e-003	-2.701322e-001	-1.456384e-002
1.731633660698729e-003	-2.761476e-001	-1.487758e-002
1.750606874984443e-003	-2.786114e-001	-1.499933e-002
1.769580089270157e-003	-2.763361e-001	-1.486352e-002
1.788553303555872e-003	-2.704981e-001	-1.453638e-002
1.807526517841586e-003	-2.610972e-001	-1.401790e-002
1.826499732127300e-003	-2.481334e-001	-1.330807e-002
1.845472946413015e-003	-2.316069e-001	-1.240691e-002
1.864446160698729e-003	-2.115175e-001	-1.131440e-002
1.883419374984443e-003	-1.878653e-001	-1.003055e-002
1.894580089270157e-003	-1.727692e-001	-9.213312e-003
1.905740803555872e-003	-1.570203e-001	-8.361747e-003
1.916901517841586e-003	-1.406185e-001	-7.475858e-003
1.928062232127300e-003	-1.235640e-001	-6.555644e-003
1.939222946413014e-003	-1.058567e-001	-5.601106e-003
1.950383660698728e-003	-8.749658e-002	-4.612245e-003
1.961544374984442e-003	-6.848364e-002	-3.589059e-003
1.965450624984442e-003	-6.181896e-002	-3.230566e-003
1.969914910698727e-003	-5.414070e-002	-2.817671e-003
1.974379196413012e-003	-4.643464e-002	-2.403376e-003
1.978843482127297e-003	-3.870079e-002	-1.987683e-003
1.983307767841583e-003	-3.093914e-002	-1.570592e-003
1.987772053555868e-003	-2.314970e-002	-1.152102e-003
1.992236339270153e-003	-1.533247e-002	-7.322125e-004
1.996700624984439e-003	-7.487441e-003	-3.109248e-004
1.998653749984438e-003	-4.059806e-003	-1.268758e-004
2.000000000000000e-003	-1.696804e-003	-7.347881e-018
