time	V(salida)	V(vin1)
0.000000000000000e+000	-6.342171e-006	0.000000e+000
1.096839285492025e-005	1.037917e-003	1.044843e-003
2.193678570984050e-005	2.065265e-003	2.072764e-003
3.290517856476075e-005	3.075701e-003	3.083763e-003
4.387357141968100e-005	4.069225e-003	4.077840e-003
5.484196427460125e-005	5.045837e-003	5.054995e-003
6.581035712952151e-005	6.005538e-003	6.015227e-003
7.677874998444173e-005	6.948326e-003	6.958538e-003
9.324080355587032e-005	8.311050e-003	8.322018e-003
1.097028571272989e-004	9.555360e-003	9.567019e-003
1.261649106987275e-004	1.068126e-002	1.069354e-002
1.426269642701561e-004	1.168874e-002	1.170159e-002
1.590890178415847e-004	1.257782e-002	1.259115e-002
1.755510714130133e-004	1.334848e-002	1.336224e-002
1.920131249844418e-004	1.400073e-002	1.401485e-002
2.174037499844418e-004	1.465335e-002	1.466783e-002
2.427943749844419e-004	1.494258e-002	1.495722e-002
2.681849999844419e-004	1.486843e-002	1.488303e-002
2.935756249844419e-004	1.443090e-002	1.444525e-002
3.189662499844420e-004	1.362998e-002	1.364388e-002
3.443568749844420e-004	1.246568e-002	1.247893e-002
3.697474999844420e-004	1.093800e-002	1.095039e-002
3.831403571272991e-004	1.001940e-002	1.003129e-002
3.965332142701563e-004	9.048145e-003	9.059490e-003
4.099260714130134e-004	8.024221e-003	8.034995e-003
4.233189285558706e-004	6.947631e-003	6.957806e-003
4.367117856987278e-004	5.818375e-003	5.827922e-003
4.501046428415849e-004	4.636453e-003	4.645343e-003
4.634974999844420e-004	3.401866e-003	3.410069e-003
4.746582142701563e-004	2.357738e-003	2.365361e-003
4.858189285558706e-004	1.314789e-003	1.321832e-003
4.969796428415849e-004	2.730191e-004	2.794827e-004
5.081403571272992e-004	-7.675723e-004	-7.616870e-004
5.193010714130135e-004	-1.806985e-003	-1.801677e-003
5.304617856987277e-004	-2.845219e-003	-2.840488e-003
5.416224999844420e-004	-3.882274e-003	-3.878119e-003
5.555733928415850e-004	-5.156804e-003	-5.153357e-003
5.695242856987278e-004	-6.369894e-003	-6.367121e-003
5.834751785558707e-004	-7.521544e-003	-7.519410e-003
5.974260714130135e-004	-8.611753e-003	-8.610224e-003
6.113769642701564e-004	-9.640521e-003	-9.639563e-003
6.253278571272993e-004	-1.060785e-002	-1.060743e-002
6.392787499844421e-004	-1.151374e-002	-1.151382e-002
6.722028571272993e-004	-1.326281e-002	-1.326386e-002
7.051269642701565e-004	-1.440205e-002	-1.440373e-002
7.380510714130137e-004	-1.493145e-002	-1.493342e-002
7.709751785558709e-004	-1.485101e-002	-1.485293e-002
8.038992856987280e-004	-1.416073e-002	-1.416226e-002
8.368233928415852e-004	-1.286061e-002	-1.286142e-002
8.697474999844423e-004	-1.095065e-002	-1.095039e-002
8.831403571272994e-004	-1.003206e-002	-1.003129e-002
8.965332142701567e-004	-9.060802e-003	-9.059490e-003
9.099260714130138e-004	-8.036878e-003	-8.034995e-003
9.233189285558710e-004	-6.960288e-003	-6.957806e-003
9.367117856987281e-004	-5.831032e-003	-5.827922e-003
9.501046428415853e-004	-4.649111e-003	-4.645343e-003
9.634974999844424e-004	-3.414524e-003	-3.410069e-003
9.746582142701567e-004	-2.370396e-003	-2.365361e-003
9.858189285558709e-004	-1.327447e-003	-1.321832e-003
9.969796428415854e-004	-2.856767e-004	-2.794827e-004
1.008140357127300e-003	7.549147e-004	7.616870e-004
1.019301071413014e-003	1.794327e-003	1.801677e-003
1.030461785698728e-003	2.832561e-003	2.840488e-003
1.041622499984442e-003	3.869616e-003	3.878119e-003
1.055573392841585e-003	5.144146e-003	5.153357e-003
1.069524285698728e-003	6.357237e-003	6.367121e-003
1.083475178555871e-003	7.508886e-003	7.519410e-003
1.097426071413014e-003	8.599095e-003	8.610224e-003
1.111376964270157e-003	9.627864e-003	9.639563e-003
1.125327857127300e-003	1.059519e-002	1.060743e-002
1.139278749984443e-003	1.150108e-002	1.151382e-002
1.172202857127300e-003	1.325016e-002	1.326386e-002
1.205126964270157e-003	1.438939e-002	1.440373e-002
1.238051071413014e-003	1.491879e-002	1.493342e-002
1.270975178555871e-003	1.483835e-002	1.485293e-002
1.303899285698728e-003	1.414807e-002	1.416226e-002
1.336823392841586e-003	1.284795e-002	1.286142e-002
1.369747499984443e-003	1.093800e-002	1.095039e-002
1.383140357127300e-003	1.001940e-002	1.003129e-002
1.396533214270157e-003	9.048145e-003	9.059490e-003
1.409926071413014e-003	8.024221e-003	8.034995e-003
1.423318928555871e-003	6.947631e-003	6.957806e-003
1.436711785698729e-003	5.818375e-003	5.827922e-003
1.450104642841586e-003	4.636453e-003	4.645343e-003
1.463497499984443e-003	3.401866e-003	3.410069e-003
1.474658214270157e-003	2.357738e-003	2.365361e-003
1.485818928555871e-003	1.314789e-003	1.321832e-003
1.496979642841586e-003	2.730191e-004	2.794827e-004
1.508140357127300e-003	-7.675723e-004	-7.616870e-004
1.519301071413014e-003	-1.806985e-003	-1.801677e-003
1.530461785698729e-003	-2.845219e-003	-2.840488e-003
1.541622499984443e-003	-3.882274e-003	-3.878119e-003
1.555573392841586e-003	-5.156804e-003	-5.153357e-003
1.569524285698729e-003	-6.369894e-003	-6.367121e-003
1.583475178555872e-003	-7.521544e-003	-7.519410e-003
1.597426071413014e-003	-8.611753e-003	-8.610224e-003
1.611376964270157e-003	-9.640521e-003	-9.639563e-003
1.625327857127300e-003	-1.060785e-002	-1.060743e-002
1.639278749984443e-003	-1.151374e-002	-1.151382e-002
1.672202857127300e-003	-1.326281e-002	-1.326386e-002
1.705126964270157e-003	-1.440205e-002	-1.440373e-002
1.738051071413014e-003	-1.493145e-002	-1.493342e-002
1.770975178555872e-003	-1.485101e-002	-1.485293e-002
1.803899285698729e-003	-1.416073e-002	-1.416226e-002
1.836823392841586e-003	-1.286061e-002	-1.286142e-002
1.869747499984443e-003	-1.095065e-002	-1.095039e-002
1.883140357127300e-003	-1.003206e-002	-1.003129e-002
1.896533214270157e-003	-9.060802e-003	-9.059490e-003
1.909926071413014e-003	-8.036878e-003	-8.034995e-003
1.923318928555871e-003	-6.960288e-003	-6.957806e-003
1.936711785698728e-003	-5.831032e-003	-5.827922e-003
1.950104642841585e-003	-4.649111e-003	-4.645343e-003
1.963497499984442e-003	-3.414524e-003	-3.410069e-003
1.965450624984442e-003	-3.235121e-003	-3.230566e-003
1.998653749984438e-003	-1.331545e-004	-1.268758e-004
2.000000000000000e-003	-6.349239e-006	-7.347881e-018
